Freq.	V(vout)/V(+)
2.00000000000000e+00	(6.02025192277476e+00dB,-1.44022940816213e+00)
2.99899899899900e+00	(6.02024998846443e+00dB,-2.15990690042797e+00)
3.99799799799800e+00	(6.02024501293237e+00dB,-2.87992416735546e+00)
4.99699699699700e+00	(6.02023472958974e+00dB,-3.60039388913204e+00)
5.99599599599600e+00	(6.02021622465791e+00dB,-4.32142831402638e+00)
6.99499499499500e+00	(6.02018593722373e+00dB,-5.04313914857958e+00)
7.99399399399400e+00	(6.02013965933794e+00dB,-5.76563744655408e+00)
8.99299299299299e+00	(6.02007253617539e+00dB,-6.48903349640436e+00)
9.99199199199199e+00	(6.01997906627913e+00dB,-7.21343670704060e+00)
1.09909909909910e+01	(6.01985310191324e+00dB,-7.93895549166527e+00)
1.19899899899900e+01	(6.01968784955362e+00dB,-8.66569714947101e+00)
1.29889889889890e+01	(6.01947587054822e+00dB,-9.39376774500081e+00)
1.39879879879880e+01	(6.01920908198213e+00dB,-1.01232719849824e+01)
1.49869869869870e+01	(6.01887875778627e+00dB,-1.08543130924639e+01)
1.59859859859860e+01	(6.01847553013110e+00dB,-1.15869926780928e+01)
1.69849849849850e+01	(6.01798939115055e+00dB,-1.23214106083972e+01)
1.79839839839840e+01	(6.01740969504414e+00dB,-1.30576648709482e+01)
1.89829829829830e+01	(6.01672516060829e+00dB,-1.37958514363018e+01)
1.99819819819820e+01	(6.01592387425092e+00dB,-1.45360641166427e+01)
2.09809809809810e+01	(6.01499329354607e+00dB,-1.52783944210749e+01)
2.19799799799800e+01	(6.01392025138796e+00dB,-1.60229314075318e+01)
2.29789789789790e+01	(6.01269096080636e+00dB,-1.67697615313078e+01)
2.39779779779780e+01	(6.01129102050761e+00dB,-1.75189684902410e+01)
2.49769769769770e+01	(6.00970542120738e+00dB,-1.82706330666120e+01)
2.59759759759760e+01	(6.00791855282320e+00dB,-1.90248329658573e+01)
2.69749749749750e+01	(6.00591421259633e+00dB,-1.97816426522317e+01)
2.79739739739740e+01	(6.00367561421384e+00dB,-2.05411331815948e+01)
2.89729729729730e+01	(6.00118539800172e+00dB,-2.13033720315357e+01)
2.99719719719720e+01	(5.99842564226173e+00dB,-2.20684229290925e+01)
3.09709709709710e+01	(5.99537787582298e+00dB,-2.28363456763697e+01)
3.19699699699700e+01	(5.99202309187982e+00dB,-2.36071959743998e+01)
3.29689689689690e+01	(5.98834176318587e+00dB,-2.43810252456448e+01)
3.39679679679680e+01	(5.98431385867259e+00dB,-2.51578804555817e+01)
3.49669669669670e+01	(5.97991886155833e+00dB,-2.59378039338650e+01)
3.59659659659660e+01	(5.97513578901069e+00dB,-2.67208331956102e+01)
3.69649649649650e+01	(5.96994321342170e+00dB,-2.75070007633936e+01)
3.79639639639640e+01	(5.96431928535016e+00dB,-2.82963339906128e+01)
3.89629629629630e+01	(5.95824175818086e+00dB,-2.90888548869043e+01)
3.99619619619620e+01	(5.95168801454405e+00dB,-2.98845799463631e+01)
4.09609609609610e+01	(5.94463509453157e+00dB,-3.06835199793561e+01)
4.19599599599600e+01	(5.93705972573840e+00dB,-3.14856799487694e+01)
4.29589589589590e+01	(5.92893835514972e+00dB,-3.22910588115700e+01)
4.39579579579580e+01	(5.92024718288414e+00dB,-3.30996493666044e+01)
4.49569569569570e+01	(5.91096219779342e+00dB,-3.39114381095917e+01)
4.59559559559560e+01	(5.90105921490770e+00dB,-3.47264050963009e+01)
4.69549549549550e+01	(5.89051391470367e+00dB,-3.55445238149270e+01)
4.79539539539540e+01	(5.87930188416003e+00dB,-3.63657610687036e+01)
4.89529529529530e+01	(5.86739865955140e+00dB,-3.71900768697989e+01)
4.99519519519520e+01	(5.85477977091808e+00dB,-3.80174243455522e+01)
5.09509509509510e+01	(5.84142078813396e+00dB,-3.88477496581044e+01)
5.19499499499500e+01	(5.82729736848058e+00dB,-3.96809919384643e+01)
5.29489489489490e+01	(5.81238530561983e+00dB,-4.05170832360349e+01)
5.39479479479480e+01	(5.79666057984236e+00dB,-4.13559484845930e+01)
5.49469469469470e+01	(5.78009940945335e+00dB,-4.21975054856758e+01)
5.59459459459460e+01	(5.76267830314226e+00dB,-4.30416649102777e+01)
5.69449449449450e+01	(5.74437411316792e+00dB,-4.38883303197008e+01)
5.79439439439440e+01	(5.72516408917591e+00dB,-4.47373982063290e+01)
5.89429429429430e+01	(5.70502593245147e+00dB,-4.55887580550140e+01)
5.99419419419420e+01	(5.68393785039821e+00dB,-4.64422924256692e+01)
6.09409409409410e+01	(5.66187861102085e+00dB,-4.72978770575617e+01)
6.19399399399400e+01	(5.63882759717974e+00dB,-4.81553809956822e+01)
6.29389389389390e+01	(5.61476486037560e+00dB,-4.90146667394477e+01)
6.39379379379380e+01	(5.58967117381559e+00dB,-4.98755904138641e+01)
6.49369369369369e+01	(5.56352808450535e+00dB,-5.07380019631350e+01)
6.59359359359359e+01	(5.53631796410876e+00dB,-5.16017453665621e+01)
6.69349349349349e+01	(5.50802405831454e+00dB,-5.24666588764314e+01)
6.79339339339339e+01	(5.47863053444960e+00dB,-5.33325752774286e+01)
6.89329329329329e+01	(5.44812252708184e+00dB,-5.41993221669738e+01)
6.99319319319319e+01	(5.41648618135986e+00dB,-5.50667222557089e+01)
7.09309309309309e+01	(5.38370869384464e+00dB,-5.59345936872216e+01)
7.19299299299299e+01	(5.34977835059808e+00dB,-5.68027503759394e+01)
7.29289289289289e+01	(5.31468456230536e+00dB,-5.76710023619813e+01)
7.39279279279279e+01	(5.27841789622245e+00dB,-5.85391561816213e+01)
7.49269269269269e+01	(5.24097010475694e+00dB,-5.94070152518852e+01)
7.59259259259259e+01	(5.20233415050877e+00dB,-6.02743802676871e+01)
7.69249249249249e+01	(5.16250422761817e+00dB,-6.11410496098040e+01)
7.79239239239239e+01	(5.12147577929007e+00dB,-6.20068197618935e+01)
7.89229229229229e+01	(5.07924551138828e+00dB,-6.28714857346838e+01)
7.99219219219219e+01	(5.03581140201732e+00dB,-6.37348414953976e+01)
8.09209209209209e+01	(4.99117270703553e+00dB,-6.45966804004301e+01)
8.19199199199199e+01	(4.94532996146988e+00dB,-6.54567956292705e+01)
8.29189189189189e+01	(4.89828497682937e+00dB,-6.63149806176427e+01)
8.39179179179179e+01	(4.85004083434089e+00dB,-6.71710294878509e+01)
8.49169169169169e+01	(4.80060187415800e+00dB,-6.80247374743373e+01)
8.59159159159159e+01	(4.74997368061909e+00dB,-6.88759013425025e+01)
8.69149149149149e+01	(4.69816306365657e+00dB,-6.97243197988946e+01)
8.79139139139139e+01	(4.64517803648289e+00dB,-7.05697938909496e+01)
8.89129129129129e+01	(4.59102778970173e+00dB,-7.14121273945543e+01)
8.99119119119119e+01	(4.53572266201395e+00dB,-7.22511271878049e+01)
9.09109109109109e+01	(4.47927410770686e+00dB,-7.30866036094499e+01)
9.19099099099099e+01	(4.42169466113312e+00dB,-7.39183708006323e+01)
9.29089089089089e+01	(4.36299789840023e+00dB,-7.47462470286817e+01)
9.39079079079079e+01	(4.30319839650455e+00dB,-7.55700549918468e+01)
9.49069069069069e+01	(4.24231169015475e+00dB,-7.63896221040121e+01)
9.59059059059059e+01	(4.18035422653699e+00dB,-7.72047807585882e+01)
9.69049049049049e+01	(4.11734331828076e+00dB,-7.80153685709259e+01)
9.79039039039039e+01	(4.05329709488703e+00dB,-7.88212285987541e+01)
9.89029029029029e+01	(3.98823445288204e+00dB,-7.96222095402964e+01)
9.99019019019019e+01	(3.92217500495855e+00dB,-8.04181659098733e+01)
1.00900900900901e+02	(3.85513902836331e+00dB,-8.12089581909402e+01)
1.01899899899900e+02	(3.78714741278463e+00dB,-8.19944529666526e+01)
1.02898898898899e+02	(3.71822160798612e+00dB,-8.27745230281858e+01)
1.03897897897898e+02	(3.64838357142490e+00dB,-8.35490474611567e+01)
1.04896896896897e+02	(3.57765571608170e+00dB,-8.43179117106179e+01)
1.05895895895896e+02	(3.50606085871894e+00dB,-8.50810076251969e+01)
1.06894894894895e+02	(3.43362216877067e+00dB,-8.58382334810511e+01)
1.07893893893894e+02	(3.36036311805402e+00dB,-8.65894939863996e+01)
1.08892892892893e+02	(3.28630743147802e+00dB,-8.73347002674619e+01)
1.09891891891892e+02	(3.21147903891096e+00dB,-8.80737698367045e+01)
1.10890890890891e+02	(3.13590202835164e+00dB,-8.88066265443493e+01)
1.11889889889890e+02	(3.05960060053539e+00dB,-8.95332005141384e+01)
1.12888888888889e+02	(2.98259902508944e+00dB,-9.02534280643883e+01)
1.13887887887888e+02	(2.90492159833800e+00dB,-9.09672516153867e+01)
1.14886886886887e+02	(2.82659260284104e+00dB,-9.16746195842003e+01)
1.15885885885886e+02	(2.74763626873783e+00dB,-9.23754862679700e+01)
1.16884884884885e+02	(2.66807673695055e+00dB,-9.30698117167616e+01)
1.17883883883884e+02	(2.58793802429093e+00dB,-9.37575615970381e+01)
1.18882882882883e+02	(2.50724399049912e+00dB,-9.44387070467939e+01)
1.19881881881882e+02	(2.42601830723271e+00dB,-9.51132245233760e+01)
1.20880880880881e+02	(2.34428442901150e+00dB,-9.57810956449826e+01)
1.21879879879880e+02	(2.26206556611384e+00dB,-9.64423070268006e+01)
1.22878878878879e+02	(2.17938465941001e+00dB,-9.70968501127032e+01)
1.23877877877878e+02	(2.09626435710968e+00dB,-9.77447210033900e+01)
1.24876876876877e+02	(2.01272699339221e+00dB,-9.83859202818082e+01)
1.25875875875876e+02	(1.92879456888131e+00dB,-9.90204528366461e+01)
1.26874874874875e+02	(1.84448873291939e+00dB,-9.96483276846478e+01)
1.27873873873874e+02	(1.75983076759141e+00dB,-1.00269557792443e+02)
1.28872872872873e+02	(1.67484157344274e+00dB,-1.00884159898544e+02)
1.29871871871872e+02	(1.58954165683251e+00dB,-1.01492154336110e+02)
1.30870870870871e+02	(1.50395111885941e+00dB,-1.02093564857027e+02)
1.31869869869870e+02	(1.41808964579537e+00dB,-1.02688418457818e+02)
1.32868868868869e+02	(1.33197650095964e+00dB,-1.03276745207825e+02)
1.33867867867868e+02	(1.24563051796487e+00dB,-1.03858578080090e+02)
1.34866866866867e+02	(1.15907009526593e+00dB,-1.04433952785301e+02)
1.35865865865866e+02	(1.07231319194108e+00dB,-1.05002907609120e+02)
1.36864864864865e+02	(9.85377324636257e-01dB,-1.05565483253186e+02)
1.37863863863864e+02	(8.98279565602632e-01dB,-1.06121722680043e+02)
1.38862862862863e+02	(8.11036541759087e-01dB,-1.06671670962200e+02)
1.39861861861862e+02	(7.23664434711878e-01dB,-1.07215375135493e+02)
1.40860860860861e+02	(6.36178981665604e-01dB,-1.07752884056909e+02)
1.41859859859860e+02	(5.48595477160781e-01dB,-1.08284248266974e+02)
1.42858858858859e+02	(4.60928775575451e-01dB,-1.08809519856787e+02)
1.43857857857858e+02	(3.73193294330094e-01dB,-1.09328752339782e+02)
1.44856856856857e+02	(2.85403017737325e-01dB,-1.09842000528229e+02)
1.45855855855856e+02	(1.97571501440067e-01dB,-1.10349320414504e+02)
1.46854854854855e+02	(1.09711877384211e-01dB,-1.10850769057123e+02)
1.47853853853854e+02	(2.18368592740995e-02dB,-1.11346404471502e+02)
1.48852852852853e+02	(-6.60412515381611e-02dB,-1.11836285525434e+02)
1.49851851851852e+02	(-1.53910559776464e-01dB,-1.12320471839192e+02)
1.50850850850851e+02	(-2.41759569621728e-01dB,-1.12799023690221e+02)
1.51849849849850e+02	(-3.29577177792121e-01dB,-1.13272001922332e+02)
1.52848848848849e+02	(-4.17352666361905e-01dB,-1.13739467859301e+02)
1.53847847847848e+02	(-5.05075695355901e-01dB,-1.14201483222798e+02)
1.54846846846847e+02	(-5.92736295154597e-01dB,-1.14658110054519e+02)
1.55845845845846e+02	(-6.80324858742257e-01dB,-1.15109410642430e+02)
1.56844844844844e+02	(-7.67832133828277e-01dB,-1.15555447451003e+02)
1.57843843843843e+02	(-8.55249214870485e-01dB,-1.15996283055320e+02)
1.58842842842842e+02	(-9.42567535026058e-01dB,-1.16431980078936e+02)
1.59841841841841e+02	(-1.02977885805444e+00dB,-1.16862601135366e+02)
1.60840840840840e+02	(-1.11687527019496e+00dB,-1.17288208773071e+02)
1.61839839839839e+02	(-1.20384917203920e+00dB,-1.17708865423837e+02)
1.62838838838838e+02	(-1.29069327041727e+00dB,-1.18124633354386e+02)
1.63837837837837e+02	(-1.37740057031526e+00dB,-1.18535574621130e+02)
1.64836836836836e+02	(-1.46396436683918e+00dB,-1.18941751027915e+02)
1.65835835835835e+02	(-1.55037823724016e+00dB,-1.19343224086647e+02)
1.66834834834834e+02	(-1.63663603301324e+00dB,-1.19740054980675e+02)
1.67833833833833e+02	(-1.72273187208159e+00dB,-1.20132304530806e+02)
1.68832832832832e+02	(-1.80866013107639e+00dB,-1.20520033163840e+02)
1.69831831831831e+02	(-1.89441543772160e+00dB,-1.20903300883511e+02)
1.70830830830830e+02	(-1.97999266333163e+00dB,-1.21282167243708e+02)
1.71829829829829e+02	(-2.06538691542913e+00dB,-1.21656691323888e+02)
1.72828828828828e+02	(-2.15059353048906e+00dB,-1.22026931706560e+02)
1.73827827827827e+02	(-2.23560806681427e+00dB,-1.22392946456731e+02)
1.74826826826826e+02	(-2.32042629754724e+00dB,-1.22754793103236e+02)
1.75825825825825e+02	(-2.40504420382163e+00dB,-1.23112528621828e+02)
1.76824824824824e+02	(-2.48945796805681e+00dB,-1.23466209419956e+02)
1.77823823823823e+02	(-2.57366396739776e+00dB,-1.23815891323131e+02)
1.78822822822822e+02	(-2.65765876730217e+00dB,-1.24161629562786e+02)
1.79821821821821e+02	(-2.74143911527637e+00dB,-1.24503478765568e+02)
1.80820820820820e+02	(-2.82500193476038e+00dB,-1.24841492943950e+02)
1.81819819819819e+02	(-2.90834431916302e+00dB,-1.25175725488122e+02)
1.82818818818818e+02	(-2.99146352604685e+00dB,-1.25506229159052e+02)
1.83817817817817e+02	(-3.07435697146256e+00dB,-1.25833056082675e+02)
1.84816816816816e+02	(-3.15702222443203e+00dB,-1.26156257745117e+02)
1.85815815815815e+02	(-3.23945700157943e+00dB,-1.26475884988916e+02)
1.86814814814814e+02	(-3.32165916190852e+00dB,-1.26791988010151e+02)
1.87813813813813e+02	(-3.40362670172520e+00dB,-1.27104616356440e+02)
1.88812812812812e+02	(-3.48535774970315e+00dB,-1.27413818925742e+02)
1.89811811811811e+02	(-3.56685056209101e+00dB,-1.27719643965908e+02)
1.90810810810810e+02	(-3.64810351805873e+00dB,-1.28022139074941e+02)
1.91809809809809e+02	(-3.72911511518110e+00dB,-1.28321351201898e+02)
1.92808808808808e+02	(-3.80988396505593e+00dB,-1.28617326648406e+02)
1.93807807807807e+02	(-3.89040878905460e+00dB,-1.28910111070739e+02)
1.94806806806806e+02	(-3.97068841420238e+00dB,-1.29199749482417e+02)
1.95805805805805e+02	(-4.05072176918586e+00dB,-1.29486286257288e+02)
1.96804804804804e+02	(-4.13050788048484e+00dB,-1.29769765133052e+02)
1.97803803803803e+02	(-4.21004586862603e+00dB,-1.30050229215198e+02)
1.98802802802802e+02	(-4.28933494455584e+00dB,-1.30327720981320e+02)
1.99801801801801e+02	(-4.36837440612919e+00dB,-1.30602282285775e+02)
2.00800800800800e+02	(-4.44716363471197e+00dB,-1.30873954364655e+02)
2.01799799799799e+02	(-4.52570209189410e+00dB,-1.31142777841058e+02)
2.02798798798798e+02	(-4.60398931631025e+00dB,-1.31408792730605e+02)
2.03797797797797e+02	(-4.68202492056591e+00dB,-1.31672038447206e+02)
2.04796796796796e+02	(-4.75980858826551e+00dB,-1.31932553809036e+02)
2.05795795795795e+02	(-4.83734007114014e+00dB,-1.32190377044701e+02)
2.06794794794794e+02	(-4.91461918627207e+00dB,-1.32445545799577e+02)
2.07793793793793e+02	(-4.99164581341341e+00dB,-1.32698097142301e+02)
2.08792792792792e+02	(-5.06841989239599e+00dB,-1.32948067571392e+02)
2.09791791791791e+02	(-5.14494142063034e+00dB,-1.33195493021994e+02)
2.10790790790790e+02	(-5.22121045069070e+00dB,-1.33440408872713e+02)
2.11789789789789e+02	(-5.29722708798364e+00dB,-1.33682849952547e+02)
2.12788788788788e+02	(-5.37299148849809e+00dB,-1.33922850547882e+02)
2.13787787787787e+02	(-5.44850385663379e+00dB,-1.34160444409546e+02)
2.14786786786786e+02	(-5.52376444310630e+00dB,-1.34395664759916e+02)
2.15785785785785e+02	(-5.59877354292585e+00dB,-1.34628544300050e+02)
2.16784784784784e+02	(-5.67353149344786e+00dB,-1.34859115216855e+02)
2.17783783783783e+02	(-5.74803867249289e+00dB,-1.35087409190260e+02)
2.18782782782782e+02	(-5.82229549653380e+00dB,-1.35313457400399e+02)
2.19781781781781e+02	(-5.89630241894798e+00dB,-1.35537290534790e+02)
2.20780780780780e+02	(-5.97005992833254e+00dB,-1.35758938795505e+02)
2.21779779779779e+02	(-6.04356854688045e+00dB,-1.35978431906317e+02)
2.22778778778778e+02	(-6.11682882881565e+00dB,-1.36195799119830e+02)
2.23777777777776e+02	(-6.18984135888514e+00dB,-1.36411069224568e+02)
2.24776776776775e+02	(-6.26260675090621e+00dB,-1.36624270552040e+02)
2.25775775775774e+02	(-6.33512564636704e+00dB,-1.36835430983749e+02)
2.26774774774773e+02	(-6.40739871307873e+00dB,-1.37044577958165e+02)
2.27773773773772e+02	(-6.47942664387719e+00dB,-1.37251738477642e+02)
2.28772772772771e+02	(-6.55121015537320e+00dB,-1.37456939115282e+02)
2.29771771771770e+02	(-6.62274998674885e+00dB,-1.37660206021739e+02)
2.30770770770769e+02	(-6.69404689859893e+00dB,-1.37861564931961e+02)
2.31769769769768e+02	(-6.76510167181582e+00dB,-1.38061041171865e+02)
2.32768768768767e+02	(-6.83591510651608e+00dB,-1.38258659664951e+02)
2.33767767767766e+02	(-6.90648802100766e+00dB,-1.38454444938838e+02)
2.34766766766765e+02	(-6.97682125079597e+00dB,-1.38648421131733e+02)
2.35765765765764e+02	(-7.04691564762792e+00dB,-1.38840611998824e+02)
2.36764764764763e+02	(-7.11677207857211e+00dB,-1.39031040918593e+02)
2.37763763763762e+02	(-7.18639142513422e+00dB,-1.39219730899063e+02)
2.38762762762761e+02	(-7.25577458240636e+00dB,-1.39406704583953e+02)
2.39761761761760e+02	(-7.32492245824901e+00dB,-1.39591984258764e+02)
2.40760760760759e+02	(-7.39383597250459e+00dB,-1.39775591856778e+02)
2.41759759759758e+02	(-7.46251605624148e+00dB,-1.39957548964978e+02)
2.42758758758757e+02	(-7.53096365102723e+00dB,-1.40137876829889e+02)
2.43757757757756e+02	(-7.59917970823042e+00dB,-1.40316596363330e+02)
2.44756756756755e+02	(-7.66716518834949e+00dB,-1.40493728148091e+02)
2.45755755755754e+02	(-7.73492106036812e+00dB,-1.40669292443520e+02)
2.46754754754753e+02	(-7.80244830113598e+00dB,-1.40843309191036e+02)
2.47753753753752e+02	(-7.86974789477387e+00dB,-1.41015798019550e+02)
2.48752752752751e+02	(-7.93682083210262e+00dB,-1.41186778250809e+02)
2.49751751751750e+02	(-8.00366811009464e+00dB,-1.41356268904658e+02)
2.50750750750749e+02	(-8.07029073134754e+00dB,-1.41524288704215e+02)
2.51749749749748e+02	(-8.13668970357869e+00dB,-1.41690856080968e+02)
2.52748748748747e+02	(-8.20286603914046e+00dB,-1.41855989179792e+02)
2.53747747747746e+02	(-8.26882075455485e+00dB,-1.42019705863881e+02)
2.54746746746745e+02	(-8.33455487006727e+00dB,-1.42182023719603e+02)
2.55745745745744e+02	(-8.40006940921837e+00dB,-1.42342960061274e+02)
2.56744744744743e+02	(-8.46536539843366e+00dB,-1.42502531935854e+02)
2.57743743743742e+02	(-8.53044386662995e+00dB,-1.42660756127563e+02)
2.58742742742741e+02	(-8.59530584483817e+00dB,-1.42817649162419e+02)
2.59741741741740e+02	(-8.65995236584188e+00dB,-1.42973227312706e+02)
2.60740740740739e+02	(-8.72438446383098e+00dB,-1.43127506601356e+02)
2.61739739739738e+02	(-8.78860317407008e+00dB,-1.43280502806262e+02)
2.62738738738737e+02	(-8.85260953258075e+00dB,-1.43432231464517e+02)
2.63737737737736e+02	(-8.91640457583756e+00dB,-1.43582707876577e+02)
2.64736736736735e+02	(-8.97998934047694e+00dB,-1.43731947110352e+02)
2.65735735735734e+02	(-9.04336486301881e+00dB,-1.43879964005230e+02)
2.66734734734733e+02	(-9.10653217960016e+00dB,-1.44026773176021e+02)
2.67733733733732e+02	(-9.16949232572036e+00dB,-1.44172389016843e+02)
2.68732732732731e+02	(-9.23224633599776e+00dB,-1.44316825704929e+02)
2.69731731731730e+02	(-9.29479524393695e+00dB,-1.44460097204373e+02)
2.70730730730729e+02	(-9.35714008170651e+00dB,-1.44602217269807e+02)
2.71729729729728e+02	(-9.41928187992687e+00dB,-1.44743199450012e+02)
2.72728728728727e+02	(-9.48122166746755e+00dB,-1.44883057091466e+02)
2.73727727727726e+02	(-9.54296047125405e+00dB,-1.45021803341823e+02)
2.74726726726725e+02	(-9.60449931608341e+00dB,-1.45159451153338e+02)
2.75725725725724e+02	(-9.66583922444845e+00dB,-1.45296013286223e+02)
2.76724724724723e+02	(-9.72698121637031e+00dB,-1.45431502311943e+02)
2.77723723723722e+02	(-9.78792630923901e+00dB,-1.45565930616457e+02)
2.78722722722721e+02	(-9.84867551766157e+00dB,-1.45699310403394e+02)
2.79721721721720e+02	(-9.90922985331758e+00dB,-1.45831653697176e+02)
2.80720720720719e+02	(-9.96959032482189e+00dB,-1.45962972346079e+02)
2.81719719719718e+02	(-1.00297579375941e+01dB,-1.46093278025246e+02)
2.82718718718717e+02	(-1.00897336937347e+01dB,-1.46222582239635e+02)
2.83717717717716e+02	(-1.01495185919075e+01dB,-1.46350896326921e+02)
2.84716716716715e+02	(-1.02091136272277e+01dB,-1.46478231460340e+02)
2.85715715715714e+02	(-1.02685197911571e+01dB,-1.46604598651484e+02)
2.86714714714713e+02	(-1.03277380714032e+01dB,-1.46730008753042e+02)
2.87713713713712e+02	(-1.03867694518251e+01dB,-1.46854472461493e+02)
